
T28E8 011:665 SEGGER J-Link V6.44a Log File (0024ms, 0043ms total)
T28E8 011:665 DLL Compiled: Mar  8 2019 17:31:48 (0024ms, 0043ms total)
T28E8 011:665 Logging started @ 2022-07-15 11:55 (0024ms, 0043ms total)
T28E8 011:689 JLINK_SetWarnOutHandler(...) (0009ms, 0052ms total)
T28E8 011:698 JLINK_OpenEx(...)
Firmware: J-Link V11 compiled Mar 18 2020 17:39:21
Hardware: V11.00
S/N: 941000024
Feature(s): GDB, JFlash, FlashDL, RDI, FlashBP
TELNET listener socket opened on port 19021WEBSRV 
Starting webserver (0056ms, 0108ms total)
T28E8 011:698 WEBSRV Webserver running on local port 19080 (0056ms, 0108ms total)
T28E8 011:698   returns O.K. (0056ms, 0108ms total)
T28E8 011:754 JLINK_GetEmuCaps()  returns 0xB9FF7BBF (0000ms, 0108ms total)
T28E8 011:754 JLINK_TIF_GetAvailable(...) (0000ms, 0108ms total)
T28E8 011:754 JLINK_SetErrorOutHandler(...) (0000ms, 0108ms total)
T28E8 011:754 JLINK_ExecCommand("ProjectFile = "G:\STM32_Workers\STM32H7\Greenhouse_Control_System\BootLoader\STM32H743xx_BootLoader\MDK-ARM\JLinkSettings.ini"", ...). Device "CORTEX-M7" selected.  returns 0x00 (0045ms, 0153ms total)
T28E8 011:800 JLINK_ExecCommand("Device = STM32H743IITx", ...). Device "CORTEX-M7" selected.  returns 0x00 (0044ms, 0198ms total)
T28E8 011:844 JLINK_ExecCommand("DisableConnectionTimeout", ...).   returns 0x01 (0000ms, 0198ms total)
T28E8 011:844 JLINK_GetHardwareVersion()  returns 0x1ADB0 (0000ms, 0198ms total)
T28E8 011:844 JLINK_GetDLLVersion()  returns 64401 (0000ms, 0198ms total)
T28E8 011:844 JLINK_GetFirmwareString(...) (0000ms, 0198ms total)
T28E8 011:848 JLINK_GetDLLVersion()  returns 64401 (0000ms, 0198ms total)
T28E8 011:848 JLINK_GetCompileDateTime() (0000ms, 0198ms total)
T28E8 011:849 JLINK_GetFirmwareString(...) (0000ms, 0198ms total)
T28E8 011:853 JLINK_GetHardwareVersion()  returns 0x1ADB0 (0000ms, 0198ms total)
T28E8 011:866 JLINK_TIF_Select(JLINKARM_TIF_JTAG)  returns 0x00 (0002ms, 0200ms total)
T28E8 011:868 JLINK_SetSpeed(50000) (0001ms, 0201ms total)
T28E8 011:869 JLINK_GetIdData(...) >0x2F8 JTAG>TotalIRLen = 9, IRPrint = 0x0011 >0x30 JTAG> >0x50 JTAG>JTAG chain detection found 2 devices: #0 Id: 0x6BA00477, IRLen: 04, CoreSight JTAG-DP #1 Id: 0x06450041, IRLen: 05, Unknown deviceScanning AP map to find all available APs >0x80 JTAG> >0x50 JTAG> >0x40 JTAG> >0x40 JTAG> >0x50 JTAG> >0x40 JTAG> >0x40 JTAG> >0x50 JTAG> >0x40 JTAG> >0x40 JTAG> >0x50 JTAG> >0x40 JTAG>AP[3]: Stopped AP scan as end of AP map has been reachedAP[0]: AHB-AP (IDR: 0x84770001)
AP[1]: AHB-AP (IDR: 0x84770001)AP[2]: APB-AP (IDR: 0x54770002)Iterating through AP map to find AHB-AP to use >0x80 JTAG> >0x50 JTAG> >0x50 JTAG> >0x70 JTAG> >0x40 JTAG> >0x30 JTAG> >0x40 JTAG> >0x40 JTAG>AP[0]: Core foundAP[0]: AHB-AP ROM base: 0xE00FE000 >0x40 JTAG> >0x40 JTAG> >0x30 JTAG> >0x40 JTAG> >0x40 JTAG>CPUID register: 0x411FC271. Implementer code: 0x41 (ARM)Found Cortex-M7 r1p1, Little endian. -- Max. mem block: 0x00004708 -- CPU_ReadMem(4 bytes @ 0xE000EDF0)
 -- CPU_WriteMem(4 bytes @ 0xE000EDF0) -- CPU_ReadMem(4 bytes @ 0xE0002000)FPUnit: 8 code (BP) slots and 0 literal slots -- CPU_ReadMem(4 bytes @ 0xE000EDFC) -- CPU_WriteMem(4 bytes @ 0xE000EDFC) -- CPU_ReadMem(4 bytes @ 0xE0001000) -- CPU_WriteMem(4 bytes @ 0xE0001000) -- CPU_ReadMem(4 bytes @ 0xE000ED88) -- CPU_WriteMem(4 bytes @ 0xE000ED88) -- CPU_ReadMem(4 bytes @ 0xE000ED88) -- CPU_WriteMem(4 bytes @ 0xE000ED88)CoreSight components:ROMTbl[0] @ E00FE000 -- CPU_ReadMem(16 bytes @ 0xE00FE000)
 -- CPU_ReadMem(16 bytes @ 0xE00FFFF0) -- CPU_ReadMem(16 bytes @ 0xE00FFFE0)ROMTbl[0][0]: E00FF000, CID: B105100D, PID: 000BB4C7 ROM TableROMTbl[1] @ E00FF000 -- CPU_ReadMem(16 bytes @ 0xE00FF000) -- CPU_ReadMem(16 bytes @ 0xE000EFF0) -- CPU_ReadMem(16 bytes @ 0xE000EFE0)ROMTbl[1][0]: E000E000, CID: B105E00D, PID: 000BB00C SCS-M7 -- CPU_ReadMem(16 bytes @ 0xE0001FF0) -- CPU_ReadMem(16 bytes @ 0xE0001FE0)ROMTbl[1][1]: E0001000, CID: B105E00D, PID: 000BB002 DWT -- CPU_ReadMem(16 bytes @ 0xE0002FF0)
 -- CPU_ReadMem(16 bytes @ 0xE0002FE0)ROMTbl[1][2]: E0002000, CID: B105E00D, PID: 000BB00E FPB-M7 -- CPU_ReadMem(16 bytes @ 0xE0000FF0) -- CPU_ReadMem(16 bytes @ 0xE0000FE0)ROMTbl[1][3]: E0000000, CID: B105E00D, PID: 000BB001 ITM -- CPU_ReadMem(16 bytes @ 0xE00FF010) -- CPU_ReadMem(16 bytes @ 0xE0041FF0) -- CPU_ReadMem(16 bytes @ 0xE0041FE0)ROMTbl[0][1]: E0041000, CID: B105900D, PID: 001BB975 ETM-M7 -- CPU_ReadMem(16 bytes @ 0xE0043FF0) -- CPU_ReadMem(16 bytes @ 0xE0043FE0)
ROMTbl[0][2]: E0043000, CID: B105900D, PID: 004BB906 CTI -- CPU_ReadMem(16 bytes @ 0xE00FE010) -- CPU_ReadMem(4 bytes @ 0xE000ED78)Cache: Separate I- and D-cache. (0173ms, 0374ms total)
T28E8 011:869  -- CPU_WriteMem(4 bytes @ 0xE000ED84) -- CPU_ReadMem(4 bytes @ 0xE000ED80)I-Cache L1: 16 KB, 256 Sets, 32 Bytes/Line, 2-Way -- CPU_WriteMem(4 bytes @ 0xE000ED84) -- CPU_ReadMem(4 bytes @ 0xE000ED80)D-Cache L1: 16 KB, 128 Sets, 32 Bytes/Line, 4-Way ScanLen=9 NumDevices=2 aId[0]=0x6BA00477 aIrRead[0]=0 aScanLen[0]=0 aScanRead[0]=0 (0187ms, 0388ms total)
T28E8 012:056 JLINK_JTAG_GetDeviceID(DeviceIndex = 0)  returns 0x6BA00477 (0000ms, 0388ms total)
T28E8 012:056 JLINK_JTAG_GetDeviceInfo(DeviceIndex = 0)  returns 0x00 (0000ms, 0388ms total)
T28E8 012:056 JLINK_JTAG_GetDeviceID(DeviceIndex = 1)  returns 0x6450041 (0001ms, 0389ms total)
T28E8 012:057 JLINK_JTAG_GetDeviceInfo(DeviceIndex = 1)  returns 0x01 (0000ms, 0389ms total)
T28E8 012:057 JLINK_GetDLLVersion()  returns 64401 (0000ms, 0389ms total)
T28E8 012:057 JLINK_CORE_GetFound()  returns 0xE0100FF (0000ms, 0389ms total)
T28E8 012:057 JLINK_GetDebugInfo(0x100 = JLINKARM_ROM_TABLE_ADDR_INDEX) -- Value=0xE00FE000  returns 0x00 (0000ms, 0389ms total)
T28E8 012:059 JLINK_GetDebugInfo(0x100 = JLINKARM_ROM_TABLE_ADDR_INDEX) -- Value=0xE00FE000  returns 0x00 (0000ms, 0389ms total)
T28E8 012:059 JLINK_GetDebugInfo(0x101 = JLINKARM_DEBUG_INFO_ETM_ADDR_INDEX) -- Value=0xE0041000  returns 0x00 (0000ms, 0389ms total)
T28E8 012:059 JLINK_ReadMemEx(0xE0041FD0, 0x0020 Bytes, ..., Flags = 0x02000004) -- CPU_ReadMem(32 bytes @ 0xE0041FD0) - Data: 04 00 00 00 00 00 00 00 00 00 00 00 00 00 00 00 ...  returns 0x20 (0000ms, 0389ms total)
T28E8 012:059 JLINK_GetDebugInfo(0x102 = JLINKARM_DEBUG_INFO_MTB_ADDR_INDEX) -- Value=0x00000000  returns 0x00 (0000ms, 0389ms total)
T28E8 012:059 JLINK_GetDebugInfo(0x103 = JLINKARM_DEBUG_INFO_TPIU_ADDR_INDEX) -- Value=0x00000000  returns 0x00 (0000ms, 0389ms total)
T28E8 012:059 JLINK_ReadMemEx(0xE0040FF0, 0x0010 Bytes, ..., Flags = 0x02000004) -- CPU_ReadMem(16 bytes @ 0xE0040FF0) - Data: 00 00 00 00 00 00 00 00 00 00 00 00 00 00 00 00  returns 0x10 (0001ms, 0390ms total)
T28E8 012:060 JLINK_GetDebugInfo(0x104 = JLINKARM_DEBUG_INFO_ITM_ADDR_INDEX) -- Value=0xE0000000  returns 0x00 (0000ms, 0390ms total)
T28E8 012:060 JLINK_GetDebugInfo(0x105 = JLINKARM_DEBUG_INFO_DWT_ADDR_INDEX) -- Value=0xE0001000  returns 0x00 (0000ms, 0390ms total)
T28E8 012:060 JLINK_GetDebugInfo(0x106 = JLINKARM_DEBUG_INFO_FPB_ADDR_INDEX) -- Value=0xE0002000  returns 0x00 (0000ms, 0390ms total)
T28E8 012:060 JLINK_GetDebugInfo(0x107 = JLINKARM_DEBUG_INFO_NVIC_ADDR_INDEX) -- Value=0xE000E000  returns 0x00 (0000ms, 0390ms total)
T28E8 012:060 JLINK_GetDebugInfo(0x10C = JLINKARM_DEBUG_INFO_DBG_ADDR_INDEX) -- Value=0xE000EDF0  returns 0x00 (0000ms, 0390ms total)
T28E8 012:060 JLINK_GetDebugInfo(0x01 = Unknown) -- Value=0x00000001  returns 0x00 (0000ms, 0390ms total)
T28E8 012:060 JLINK_ReadMemU32(0xE000ED00, 0x0001 Items, ...) -- CPU_ReadMem(4 bytes @ 0xE000ED00) - Data: 71 C2 1F 41  returns 1 (0000ms, 0390ms total)
T28E8 012:060 JLINK_GetDebugInfo(0x10F = JLINKARM_DEBUG_INFO_HAS_CORTEX_M_SECURITY_EXT_INDEX) -- Value=0x00000000  returns 0x00 (0000ms, 0390ms total)
T28E8 012:060 JLINK_SetResetType(JLINKARM_CM3_RESET_TYPE_NORMAL)  returns JLINKARM_CM3_RESET_TYPE_NORMAL (0000ms, 0390ms total)
T28E8 012:060 JLINK_Reset() -- CPU is running -- CPU_WriteMem(4 bytes @ 0xE000EDF0) -- CPU is running -- CPU_WriteMem(4 bytes @ 0xE000EDFC)Reset: Halt core after reset via DEMCR.VC_CORERESET.Reset: Reset device via AIRCR.SYSRESETREQ. -- CPU is running -- CPU_WriteMem(4 bytes @ 0xE000ED0C) -- CPU_ReadMem(4 bytes @ 0xE000EDF0) -- CPU_ReadMem(4 bytes @ 0xE000EDF0) -- CPU is running -- CPU_WriteMem(4 bytes @ 0xE000EDF0) -- CPU is running -- CPU_WriteMem(4 bytes @ 0xE000EDFC)
 -- CPU_ReadMem(4 bytes @ 0xE000EDF0) -- CPU_WriteMem(4 bytes @ 0xE000EDFC) -- CPU_WriteMem(4 bytes @ 0xE0001028) -- CPU_WriteMem(4 bytes @ 0xE0001038) -- CPU_WriteMem(4 bytes @ 0xE0001048) -- CPU_WriteMem(4 bytes @ 0xE0001058) -- CPU_WriteMem(4 bytes @ 0xE0002000) -- CPU_ReadMem(4 bytes @ 0xE000EDFC) -- CPU_ReadMem(4 bytes @ 0xE0001000) (0067ms, 0457ms total)
T28E8 012:127 JLINK_Halt()  returns 0x00 (0000ms, 0457ms total)
T28E8 012:127 JLINK_ReadMemU32(0xE000EDF0, 0x0001 Items, ...) -- CPU_ReadMem(4 bytes @ 0xE000EDF0) - Data: 03 00 03 00  returns 1 (0000ms, 0457ms total)
T28E8 012:127 JLINK_WriteU32(0xE000EDF0, 0xA05F0003) -- CPU_WriteMem(4 bytes @ 0xE000EDF0)  returns 0 (0001ms, 0458ms total)
T28E8 012:128 JLINK_WriteU32(0xE000EDFC, 0x01000000) -- CPU_WriteMem(4 bytes @ 0xE000EDFC)  returns 0 (0000ms, 0458ms total)
T28E8 012:135 JLINK_GetHWStatus(...)  returns 0x00 (0000ms, 0458ms total)
T28E8 012:157 JLINK_GetNumBPUnits(Type = 0xFFFFFF00)  returns 0x08 (0000ms, 0458ms total)
T28E8 012:157 JLINK_GetNumBPUnits(Type = 0xF0)  returns 0x2000 (0000ms, 0458ms total)
T28E8 012:157 JLINK_GetNumWPUnits()  returns 0x04 (0000ms, 0458ms total)
T28E8 012:162 JLINK_GetSpeed()  returns 0x3A98 (0000ms, 0458ms total)
T28E8 012:177 JLINK_ReadMemU32(0xE000E004, 0x0001 Items, ...) -- CPU_ReadMem(4 bytes @ 0xE000E004) - Data: 04 00 00 00  returns 1 (0000ms, 0458ms total)
T28E8 012:177 JLINK_ReadMemU32(0xE000E004, 0x0001 Items, ...) -- CPU_ReadMem(4 bytes @ 0xE000E004) - Data: 04 00 00 00  returns 1 (0001ms, 0459ms total)
T28E8 012:178 JLINK_WriteMemEx(0xE0001000, 0x001C Bytes, ..., Flags = 0x02000004) - Data: 01 00 00 00 00 00 00 00 00 00 00 00 00 00 00 00 ... -- CPU_WriteMem(28 bytes @ 0xE0001000)  returns 0x1C (0000ms, 0459ms total)
T28E8 012:178 JLINK_Halt()  returns 0x00 (0000ms, 0459ms total)
T28E8 012:178 JLINK_IsHalted()  returns TRUE (0000ms, 0459ms total)
T28E8 012:184 JLINK_WriteMem(0x20000000, 0x0418 Bytes, ...) - Data: 00 BE 0A E0 0D 78 2D 06 68 40 08 24 40 00 00 D3 ... -- CPU_WriteMem(1048 bytes @ 0x20000000)  returns 0x418 (0002ms, 0461ms total)
T28E8 012:186 JLINK_WriteReg(R0, 0x08000000)  returns 0x00 (0001ms, 0462ms total)
T28E8 012:187 JLINK_WriteReg(R1, 0x017D7840)  returns 0x00 (0000ms, 0462ms total)
T28E8 012:187 JLINK_WriteReg(R2, 0x00000001)  returns 0x00 (0000ms, 0462ms total)
T28E8 012:187 JLINK_WriteReg(R3, 0x00000000)  returns 0x00 (0000ms, 0462ms total)
T28E8 012:187 JLINK_WriteReg(R4, 0x00000000)  returns 0x00 (0000ms, 0462ms total)
T28E8 012:187 JLINK_WriteReg(R5, 0x00000000)  returns 0x00 (0000ms, 0462ms total)
T28E8 012:187 JLINK_WriteReg(R6, 0x00000000)  returns 0x00 (0000ms, 0462ms total)
T28E8 012:187 JLINK_WriteReg(R7, 0x00000000)  returns 0x00 (0000ms, 0462ms total)
T28E8 012:187 JLINK_WriteReg(R8, 0x00000000)  returns 0x00 (0000ms, 0462ms total)
T28E8 012:187 JLINK_WriteReg(R9, 0x20000414)  returns 0x00 (0000ms, 0462ms total)
T28E8 012:187 JLINK_WriteReg(R10, 0x00000000)  returns 0x00 (0000ms, 0462ms total)
T28E8 012:187 JLINK_WriteReg(R11, 0x00000000)  returns 0x00 (0000ms, 0462ms total)
T28E8 012:187 JLINK_WriteReg(R12, 0x00000000)  returns 0x00 (0000ms, 0462ms total)
T28E8 012:187 JLINK_WriteReg(R13 (SP), 0x20008000)  returns 0x00 (0000ms, 0462ms total)
T28E8 012:187 JLINK_WriteReg(R14, 0x20000001)  returns 0x00 (0000ms, 0462ms total)
T28E8 012:187 JLINK_WriteReg(R15 (PC), 0x2000003E)  returns 0x00 (0000ms, 0462ms total)
T28E8 012:187 JLINK_WriteReg(XPSR, 0x01000000)  returns 0x00 (0000ms, 0462ms total)
T28E8 012:187 JLINK_WriteReg(MSP, 0x20008000)  returns 0x00 (0000ms, 0462ms total)
T28E8 012:187 JLINK_WriteReg(PSP, 0x20008000)  returns 0x00 (0000ms, 0462ms total)
T28E8 012:187 JLINK_WriteReg(CFBP, 0x00000000)  returns 0x00 (0000ms, 0462ms total)
T28E8 012:187 JLINK_SetBPEx(Addr = 0x20000000, Type = 0xFFFFFFF2)  returns 0x00000001 (0000ms, 0462ms total)
T28E8 012:187 JLINK_Go() -- CPU_ReadMem(4 bytes @ 0xE0001000) -- CPU_WriteMem(4 bytes @ 0xE0002008) -- CPU_WriteMem(4 bytes @ 0xE000200C) -- CPU_WriteMem(4 bytes @ 0xE0002010) -- CPU_WriteMem(4 bytes @ 0xE0002014) -- CPU_WriteMem(4 bytes @ 0xE0002018) -- CPU_WriteMem(4 bytes @ 0xE000201C) -- CPU_WriteMem(4 bytes @ 0xE0002020) -- CPU_WriteMem(4 bytes @ 0xE0002024) -- CPU_WriteMem(4 bytes @ 0xE0001004) (0002ms, 0464ms total)
T28E8 012:189 JLINK_IsHalted()  returns TRUE (0001ms, 0465ms total)
T28E8 012:190 JLINK_ReadReg(R15 (PC))  returns 0x20000000 (0000ms, 0464ms total)
T28E8 012:190 JLINK_ClrBPEx(BPHandle = 0x00000001)  returns 0x00 (0000ms, 0464ms total)
T28E8 012:190 JLINK_ReadReg(R0)  returns 0x00000000 (0000ms, 0464ms total)
T28E8 012:190 JLINK_WriteReg(R0, 0x08000000)  returns 0x00 (0000ms, 0464ms total)
T28E8 012:190 JLINK_WriteReg(R1, 0x00020000)  returns 0x00 (0000ms, 0464ms total)
T28E8 012:190 JLINK_WriteReg(R2, 0x000000FF)  returns 0x00 (0000ms, 0464ms total)
T28E8 012:190 JLINK_WriteReg(R3, 0x00000000)  returns 0x00 (0000ms, 0464ms total)
T28E8 012:190 JLINK_WriteReg(R4, 0x00000000)  returns 0x00 (0000ms, 0464ms total)
T28E8 012:190 JLINK_WriteReg(R5, 0x00000000)  returns 0x00 (0000ms, 0464ms total)
T28E8 012:190 JLINK_WriteReg(R6, 0x00000000)  returns 0x00 (0000ms, 0464ms total)
T28E8 012:190 JLINK_WriteReg(R7, 0x00000000)  returns 0x00 (0000ms, 0464ms total)
T28E8 012:190 JLINK_WriteReg(R8, 0x00000000)  returns 0x00 (0000ms, 0464ms total)
T28E8 012:190 JLINK_WriteReg(R9, 0x20000414)  returns 0x00 (0000ms, 0464ms total)
T28E8 012:190 JLINK_WriteReg(R10, 0x00000000)  returns 0x00 (0000ms, 0464ms total)
T28E8 012:190 JLINK_WriteReg(R11, 0x00000000)  returns 0x00 (0000ms, 0464ms total)
T28E8 012:190 JLINK_WriteReg(R12, 0x00000000)  returns 0x00 (0000ms, 0464ms total)
T28E8 012:190 JLINK_WriteReg(R13 (SP), 0x20008000)  returns 0x00 (0000ms, 0464ms total)
T28E8 012:190 JLINK_WriteReg(R14, 0x20000001)  returns 0x00 (0000ms, 0464ms total)
T28E8 012:190 JLINK_WriteReg(R15 (PC), 0x20000020)  returns 0x00 (0000ms, 0464ms total)
T28E8 012:190 JLINK_WriteReg(XPSR, 0x01000000)  returns 0x00 (0000ms, 0464ms total)
T28E8 012:190 JLINK_WriteReg(MSP, 0x20008000)  returns 0x00 (0000ms, 0464ms total)
T28E8 012:190 JLINK_WriteReg(PSP, 0x20008000)  returns 0x00 (0000ms, 0464ms total)
T28E8 012:190 JLINK_WriteReg(CFBP, 0x00000000)  returns 0x00 (0000ms, 0464ms total)
T28E8 012:190 JLINK_SetBPEx(Addr = 0x20000000, Type = 0xFFFFFFF2)  returns 0x00000002 (0001ms, 0465ms total)
T28E8 012:191 JLINK_Go() -- CPU_ReadMem(4 bytes @ 0xE0001000) (0001ms, 0466ms total)
T28E8 012:192 JLINK_IsHalted()  returns FALSE (0000ms, 0466ms total)
T28E8 012:224 JLINK_IsHalted()  returns TRUE (0001ms, 0467ms total)
T28E8 012:225 JLINK_ReadReg(R15 (PC))  returns 0x20000000 (0000ms, 0466ms total)
T28E8 012:225 JLINK_ClrBPEx(BPHandle = 0x00000002)  returns 0x00 (0000ms, 0466ms total)
T28E8 012:225 JLINK_ReadReg(R0)  returns 0x00000000 (0000ms, 0466ms total)
T28E8 012:225 JLINK_WriteReg(R0, 0x00000001)  returns 0x00 (0000ms, 0466ms total)
T28E8 012:225 JLINK_WriteReg(R1, 0x00020000)  returns 0x00 (0000ms, 0466ms total)
T28E8 012:225 JLINK_WriteReg(R2, 0x000000FF)  returns 0x00 (0000ms, 0466ms total)
T28E8 012:225 JLINK_WriteReg(R3, 0x00000000)  returns 0x00 (0000ms, 0466ms total)
T28E8 012:225 JLINK_WriteReg(R4, 0x00000000)  returns 0x00 (0000ms, 0466ms total)
T28E8 012:225 JLINK_WriteReg(R5, 0x00000000)  returns 0x00 (0000ms, 0466ms total)
T28E8 012:225 JLINK_WriteReg(R6, 0x00000000)  returns 0x00 (0000ms, 0466ms total)
T28E8 012:225 JLINK_WriteReg(R7, 0x00000000)  returns 0x00 (0000ms, 0466ms total)
T28E8 012:225 JLINK_WriteReg(R8, 0x00000000)  returns 0x00 (0000ms, 0466ms total)
T28E8 012:225 JLINK_WriteReg(R9, 0x20000414)  returns 0x00 (0000ms, 0466ms total)
T28E8 012:225 JLINK_WriteReg(R10, 0x00000000)  returns 0x00 (0000ms, 0466ms total)
T28E8 012:225 JLINK_WriteReg(R11, 0x00000000)  returns 0x00 (0000ms, 0466ms total)
T28E8 012:225 JLINK_WriteReg(R12, 0x00000000)  returns 0x00 (0000ms, 0466ms total)
T28E8 012:225 JLINK_WriteReg(R13 (SP), 0x20008000)  returns 0x00 (0000ms, 0466ms total)
T28E8 012:225 JLINK_WriteReg(R14, 0x20000001)  returns 0x00 (0000ms, 0466ms total)
T28E8 012:225 JLINK_WriteReg(R15 (PC), 0x2000009C)  returns 0x00 (0000ms, 0466ms total)
T28E8 012:225 JLINK_WriteReg(XPSR, 0x01000000)  returns 0x00 (0000ms, 0466ms total)
T28E8 012:225 JLINK_WriteReg(MSP, 0x20008000)  returns 0x00 (0000ms, 0466ms total)
T28E8 012:225 JLINK_WriteReg(PSP, 0x20008000)  returns 0x00 (0000ms, 0466ms total)
T28E8 012:225 JLINK_WriteReg(CFBP, 0x00000000)  returns 0x00 (0000ms, 0466ms total)
T28E8 012:225 JLINK_SetBPEx(Addr = 0x20000000, Type = 0xFFFFFFF2)  returns 0x00000003 (0000ms, 0466ms total)
T28E8 012:225 JLINK_Go() -- CPU_ReadMem(4 bytes @ 0xE0001000) (0002ms, 0468ms total)
T28E8 012:227 JLINK_IsHalted()  returns TRUE (0001ms, 0469ms total)
T28E8 012:228 JLINK_ReadReg(R15 (PC))  returns 0x20000000 (0000ms, 0468ms total)
T28E8 012:228 JLINK_ClrBPEx(BPHandle = 0x00000003)  returns 0x00 (0000ms, 0468ms total)
T28E8 012:228 JLINK_ReadReg(R0)  returns 0x00000000 (0000ms, 0468ms total)
T28E8 012:284 JLINK_WriteMem(0x20000000, 0x0418 Bytes, ...) - Data: 00 BE 0A E0 0D 78 2D 06 68 40 08 24 40 00 00 D3 ... -- CPU_WriteMem(1048 bytes @ 0x20000000)  returns 0x418 (0002ms, 0470ms total)
T28E8 012:286 JLINK_WriteReg(R0, 0x08000000)  returns 0x00 (0000ms, 0470ms total)
T28E8 012:286 JLINK_WriteReg(R1, 0x017D7840)  returns 0x00 (0000ms, 0470ms total)
T28E8 012:286 JLINK_WriteReg(R2, 0x00000002)  returns 0x00 (0000ms, 0470ms total)
T28E8 012:286 JLINK_WriteReg(R3, 0x00000000)  returns 0x00 (0000ms, 0470ms total)
T28E8 012:286 JLINK_WriteReg(R4, 0x00000000)  returns 0x00 (0000ms, 0470ms total)
T28E8 012:286 JLINK_WriteReg(R5, 0x00000000)  returns 0x00 (0000ms, 0470ms total)
T28E8 012:286 JLINK_WriteReg(R6, 0x00000000)  returns 0x00 (0000ms, 0470ms total)
T28E8 012:286 JLINK_WriteReg(R7, 0x00000000)  returns 0x00 (0000ms, 0470ms total)
T28E8 012:286 JLINK_WriteReg(R8, 0x00000000)  returns 0x00 (0000ms, 0470ms total)
T28E8 012:286 JLINK_WriteReg(R9, 0x20000414)  returns 0x00 (0000ms, 0470ms total)
T28E8 012:286 JLINK_WriteReg(R10, 0x00000000)  returns 0x00 (0000ms, 0470ms total)
T28E8 012:286 JLINK_WriteReg(R11, 0x00000000)  returns 0x00 (0000ms, 0470ms total)
T28E8 012:286 JLINK_WriteReg(R12, 0x00000000)  returns 0x00 (0000ms, 0470ms total)
T28E8 012:286 JLINK_WriteReg(R13 (SP), 0x20008000)  returns 0x00 (0000ms, 0470ms total)
T28E8 012:286 JLINK_WriteReg(R14, 0x20000001)  returns 0x00 (0000ms, 0470ms total)
T28E8 012:286 JLINK_WriteReg(R15 (PC), 0x2000003E)  returns 0x00 (0000ms, 0470ms total)
T28E8 012:286 JLINK_WriteReg(XPSR, 0x01000000)  returns 0x00 (0000ms, 0470ms total)
T28E8 012:286 JLINK_WriteReg(MSP, 0x20008000)  returns 0x00 (0000ms, 0470ms total)
T28E8 012:286 JLINK_WriteReg(PSP, 0x20008000)  returns 0x00 (0000ms, 0470ms total)
T28E8 012:286 JLINK_WriteReg(CFBP, 0x00000000)  returns 0x00 (0000ms, 0470ms total)
T28E8 012:286 JLINK_SetBPEx(Addr = 0x20000000, Type = 0xFFFFFFF2)  returns 0x00000004 (0000ms, 0470ms total)
T28E8 012:286 JLINK_Go() -- CPU_ReadMem(4 bytes @ 0xE0001000) (0001ms, 0471ms total)
T28E8 012:287 JLINK_IsHalted()  returns TRUE (0001ms, 0472ms total)
T28E8 012:288 JLINK_ReadReg(R15 (PC))  returns 0x20000000 (0000ms, 0471ms total)
T28E8 012:288 JLINK_ClrBPEx(BPHandle = 0x00000004)  returns 0x00 (0000ms, 0471ms total)
T28E8 012:288 JLINK_ReadReg(R0)  returns 0x00000000 (0000ms, 0471ms total)
T28E8 012:289 JLINK_WriteMem(0x20000418, 0x03E8 Bytes, ...) - Data: 80 24 00 20 79 03 00 08 77 3C 00 08 79 37 00 08 ... -- CPU_WriteMem(1000 bytes @ 0x20000418)  returns 0x3E8 (0002ms, 0473ms total)
T28E8 012:291 JLINK_WriteMem(0x20000800, 0x0018 Bytes, ...) - Data: 20 05 1E BF 22 FA 05 FC 44 EA 0C 04 20 35 56 EA ... -- CPU_WriteMem(24 bytes @ 0x20000800)  returns 0x18 (0000ms, 0473ms total)
T28E8 012:291 JLINK_WriteReg(R0, 0x08000000)  returns 0x00 (0000ms, 0473ms total)
T28E8 012:291 JLINK_WriteReg(R1, 0x00000400)  returns 0x00 (0000ms, 0473ms total)
T28E8 012:291 JLINK_WriteReg(R2, 0x20000418)  returns 0x00 (0000ms, 0473ms total)
T28E8 012:291 JLINK_WriteReg(R3, 0x00000000)  returns 0x00 (0000ms, 0473ms total)
T28E8 012:291 JLINK_WriteReg(R4, 0x00000000)  returns 0x00 (0000ms, 0473ms total)
T28E8 012:291 JLINK_WriteReg(R5, 0x00000000)  returns 0x00 (0000ms, 0473ms total)
T28E8 012:291 JLINK_WriteReg(R6, 0x00000000)  returns 0x00 (0000ms, 0473ms total)
T28E8 012:291 JLINK_WriteReg(R7, 0x00000000)  returns 0x00 (0000ms, 0473ms total)
T28E8 012:291 JLINK_WriteReg(R8, 0x00000000)  returns 0x00 (0000ms, 0473ms total)
T28E8 012:291 JLINK_WriteReg(R9, 0x20000414)  returns 0x00 (0000ms, 0473ms total)
T28E8 012:291 JLINK_WriteReg(R10, 0x00000000)  returns 0x00 (0000ms, 0473ms total)
T28E8 012:291 JLINK_WriteReg(R11, 0x00000000)  returns 0x00 (0000ms, 0473ms total)
T28E8 012:291 JLINK_WriteReg(R12, 0x00000000)  returns 0x00 (0000ms, 0473ms total)
T28E8 012:291 JLINK_WriteReg(R13 (SP), 0x20008000)  returns 0x00 (0000ms, 0473ms total)
T28E8 012:291 JLINK_WriteReg(R14, 0x20000001)  returns 0x00 (0000ms, 0473ms total)
T28E8 012:291 JLINK_WriteReg(R15 (PC), 0x2000029A)  returns 0x00 (0000ms, 0473ms total)
T28E8 012:291 JLINK_WriteReg(XPSR, 0x01000000)  returns 0x00 (0000ms, 0473ms total)
T28E8 012:291 JLINK_WriteReg(MSP, 0x20008000)  returns 0x00 (0000ms, 0473ms total)
T28E8 012:291 JLINK_WriteReg(PSP, 0x20008000)  returns 0x00 (0000ms, 0473ms total)
T28E8 012:291 JLINK_WriteReg(CFBP, 0x00000000)  returns 0x00 (0000ms, 0473ms total)
T28E8 012:291 JLINK_SetBPEx(Addr = 0x20000000, Type = 0xFFFFFFF2)  returns 0x00000005 (0000ms, 0473ms total)
T28E8 012:291 JLINK_Go() -- CPU_ReadMem(4 bytes @ 0xE0001000) (0002ms, 0475ms total)
T28E8 012:293 JLINK_IsHalted()  returns FALSE (0000ms, 0475ms total)
T28E8 012:297 JLINK_IsHalted()  returns FALSE (0000ms, 0475ms total)
T28E8 012:300 JLINK_IsHalted()  returns FALSE (0000ms, 0475ms total)
T28E8 012:302 JLINK_IsHalted()  returns TRUE (0001ms, 0476ms total)
T28E8 012:303 JLINK_ReadReg(R15 (PC))  returns 0x20000000 (0000ms, 0475ms total)
T28E8 012:303 JLINK_ClrBPEx(BPHandle = 0x00000005)  returns 0x00 (0000ms, 0475ms total)
T28E8 012:303 JLINK_ReadReg(R0)  returns 0x00000000 (0000ms, 0475ms total)
T28E8 012:303 JLINK_WriteMem(0x20000418, 0x03E8 Bytes, ...) - Data: 64 1C 4F F0 00 08 4F F0 00 09 90 42 71 EB 03 0C ... -- CPU_WriteMem(1000 bytes @ 0x20000418)  returns 0x3E8 (0002ms, 0477ms total)
T28E8 012:305 JLINK_WriteMem(0x20000800, 0x0018 Bytes, ...) - Data: 20 21 B4 F1 01 6F CD E9 03 01 01 D2 01 20 00 E0 ... -- CPU_WriteMem(24 bytes @ 0x20000800)  returns 0x18 (0000ms, 0477ms total)
T28E8 012:305 JLINK_WriteReg(R0, 0x08000400)  returns 0x00 (0000ms, 0477ms total)
T28E8 012:305 JLINK_WriteReg(R1, 0x00000400)  returns 0x00 (0000ms, 0477ms total)
T28E8 012:305 JLINK_WriteReg(R2, 0x20000418)  returns 0x00 (0000ms, 0477ms total)
T28E8 012:306 JLINK_WriteReg(R3, 0x00000000)  returns 0x00 (0000ms, 0478ms total)
T28E8 012:306 JLINK_WriteReg(R4, 0x00000000)  returns 0x00 (0000ms, 0478ms total)
T28E8 012:306 JLINK_WriteReg(R5, 0x00000000)  returns 0x00 (0000ms, 0478ms total)
T28E8 012:306 JLINK_WriteReg(R6, 0x00000000)  returns 0x00 (0000ms, 0478ms total)
T28E8 012:306 JLINK_WriteReg(R7, 0x00000000)  returns 0x00 (0000ms, 0478ms total)
T28E8 012:306 JLINK_WriteReg(R8, 0x00000000)  returns 0x00 (0000ms, 0478ms total)
T28E8 012:306 JLINK_WriteReg(R9, 0x20000414)  returns 0x00 (0000ms, 0478ms total)
T28E8 012:306 JLINK_WriteReg(R10, 0x00000000)  returns 0x00 (0000ms, 0478ms total)
T28E8 012:306 JLINK_WriteReg(R11, 0x00000000)  returns 0x00 (0000ms, 0478ms total)
T28E8 012:306 JLINK_WriteReg(R12, 0x00000000)  returns 0x00 (0000ms, 0478ms total)
T28E8 012:306 JLINK_WriteReg(R13 (SP), 0x20008000)  returns 0x00 (0000ms, 0478ms total)
T28E8 012:306 JLINK_WriteReg(R14, 0x20000001)  returns 0x00 (0000ms, 0478ms total)
T28E8 012:306 JLINK_WriteReg(R15 (PC), 0x2000029A)  returns 0x00 (0000ms, 0478ms total)
T28E8 012:306 JLINK_WriteReg(XPSR, 0x01000000)  returns 0x00 (0000ms, 0478ms total)
T28E8 012:306 JLINK_WriteReg(MSP, 0x20008000)  returns 0x00 (0000ms, 0478ms total)
T28E8 012:306 JLINK_WriteReg(PSP, 0x20008000)  returns 0x00 (0000ms, 0478ms total)
T28E8 012:306 JLINK_WriteReg(CFBP, 0x00000000)  returns 0x00 (0000ms, 0478ms total)
T28E8 012:306 JLINK_SetBPEx(Addr = 0x20000000, Type = 0xFFFFFFF2)  returns 0x00000006 (0000ms, 0478ms total)
T28E8 012:306 JLINK_Go() -- CPU_ReadMem(4 bytes @ 0xE0001000) (0001ms, 0479ms total)
T28E8 012:307 JLINK_IsHalted()  returns FALSE (0000ms, 0479ms total)
T28E8 012:309 JLINK_IsHalted()  returns FALSE (0000ms, 0479ms total)
T28E8 012:311 JLINK_IsHalted()  returns FALSE (0000ms, 0479ms total)
T28E8 012:313 JLINK_IsHalted()  returns FALSE (0000ms, 0479ms total)
T28E8 012:315 JLINK_IsHalted()  returns FALSE (0000ms, 0479ms total)
T28E8 012:317 JLINK_IsHalted()  returns TRUE (0001ms, 0480ms total)
T28E8 012:318 JLINK_ReadReg(R15 (PC))  returns 0x20000000 (0000ms, 0479ms total)
T28E8 012:318 JLINK_ClrBPEx(BPHandle = 0x00000006)  returns 0x00 (0000ms, 0479ms total)
T28E8 012:318 JLINK_ReadReg(R0)  returns 0x00000000 (0000ms, 0479ms total)
T28E8 012:319 JLINK_WriteMem(0x20000418, 0x03E8 Bytes, ...) - Data: 00 F0 2E FA 10 B1 01 20 07 B0 30 BD 00 F0 BA FC ... -- CPU_WriteMem(1000 bytes @ 0x20000418)  returns 0x3E8 (0002ms, 0481ms total)
T28E8 012:321 JLINK_WriteMem(0x20000800, 0x0018 Bytes, ...) - Data: 00 00 F2 F7 00 00 EE F7 00 00 EC F7 00 00 EA F7 ... -- CPU_WriteMem(24 bytes @ 0x20000800)  returns 0x18 (0000ms, 0481ms total)
T28E8 012:321 JLINK_WriteReg(R0, 0x08000800)  returns 0x00 (0000ms, 0481ms total)
T28E8 012:321 JLINK_WriteReg(R1, 0x00000400)  returns 0x00 (0000ms, 0481ms total)
T28E8 012:321 JLINK_WriteReg(R2, 0x20000418)  returns 0x00 (0000ms, 0481ms total)
T28E8 012:321 JLINK_WriteReg(R3, 0x00000000)  returns 0x00 (0000ms, 0481ms total)
T28E8 012:321 JLINK_WriteReg(R4, 0x00000000)  returns 0x00 (0000ms, 0481ms total)
T28E8 012:321 JLINK_WriteReg(R5, 0x00000000)  returns 0x00 (0000ms, 0481ms total)
T28E8 012:321 JLINK_WriteReg(R6, 0x00000000)  returns 0x00 (0000ms, 0481ms total)
T28E8 012:321 JLINK_WriteReg(R7, 0x00000000)  returns 0x00 (0000ms, 0481ms total)
T28E8 012:321 JLINK_WriteReg(R8, 0x00000000)  returns 0x00 (0000ms, 0481ms total)
T28E8 012:321 JLINK_WriteReg(R9, 0x20000414)  returns 0x00 (0000ms, 0481ms total)
T28E8 012:321 JLINK_WriteReg(R10, 0x00000000)  returns 0x00 (0000ms, 0481ms total)
T28E8 012:321 JLINK_WriteReg(R11, 0x00000000)  returns 0x00 (0000ms, 0481ms total)
T28E8 012:321 JLINK_WriteReg(R12, 0x00000000)  returns 0x00 (0000ms, 0481ms total)
T28E8 012:321 JLINK_WriteReg(R13 (SP), 0x20008000)  returns 0x00 (0000ms, 0481ms total)
T28E8 012:321 JLINK_WriteReg(R14, 0x20000001)  returns 0x00 (0000ms, 0481ms total)
T28E8 012:321 JLINK_WriteReg(R15 (PC), 0x2000029A)  returns 0x00 (0000ms, 0481ms total)
T28E8 012:321 JLINK_WriteReg(XPSR, 0x01000000)  returns 0x00 (0000ms, 0481ms total)
T28E8 012:321 JLINK_WriteReg(MSP, 0x20008000)  returns 0x00 (0000ms, 0481ms total)
T28E8 012:321 JLINK_WriteReg(PSP, 0x20008000)  returns 0x00 (0000ms, 0481ms total)
T28E8 012:321 JLINK_WriteReg(CFBP, 0x00000000)  returns 0x00 (0000ms, 0481ms total)
T28E8 012:321 JLINK_SetBPEx(Addr = 0x20000000, Type = 0xFFFFFFF2)  returns 0x00000007 (0000ms, 0481ms total)
T28E8 012:321 JLINK_Go() -- CPU_ReadMem(4 bytes @ 0xE0001000) (0002ms, 0483ms total)
T28E8 012:323 JLINK_IsHalted()  returns FALSE (0000ms, 0483ms total)
T28E8 012:325 JLINK_IsHalted()  returns FALSE (0000ms, 0483ms total)
T28E8 012:327 JLINK_IsHalted()  returns FALSE (0000ms, 0483ms total)
T28E8 012:329 JLINK_IsHalted()  returns FALSE (0000ms, 0483ms total)
T28E8 012:331 JLINK_IsHalted()  returns FALSE (0000ms, 0483ms total)
T28E8 012:333 JLINK_IsHalted()  returns TRUE (0001ms, 0484ms total)
T28E8 012:334 JLINK_ReadReg(R15 (PC))  returns 0x20000000 (0000ms, 0483ms total)
T28E8 012:334 JLINK_ClrBPEx(BPHandle = 0x00000007)  returns 0x00 (0000ms, 0483ms total)
T28E8 012:334 JLINK_ReadReg(R0)  returns 0x00000000 (0000ms, 0483ms total)
T28E8 012:334 JLINK_WriteMem(0x20000418, 0x03E8 Bytes, ...) - Data: 00 00 E4 F7 70 B5 00 23 04 46 10 46 4A F2 01 05 ... -- CPU_WriteMem(1000 bytes @ 0x20000418)  returns 0x3E8 (0002ms, 0485ms total)
T28E8 012:336 JLINK_WriteMem(0x20000800, 0x0018 Bytes, ...) - Data: 04 1A 00 20 00 20 00 52 70 47 00 00 2D E9 F0 41 ... -- CPU_WriteMem(24 bytes @ 0x20000800)  returns 0x18 (0000ms, 0485ms total)
T28E8 012:336 JLINK_WriteReg(R0, 0x08000C00)  returns 0x00 (0000ms, 0485ms total)
T28E8 012:336 JLINK_WriteReg(R1, 0x00000400)  returns 0x00 (0000ms, 0485ms total)
T28E8 012:337 JLINK_WriteReg(R2, 0x20000418)  returns 0x00 (0000ms, 0486ms total)
T28E8 012:337 JLINK_WriteReg(R3, 0x00000000)  returns 0x00 (0000ms, 0486ms total)
T28E8 012:337 JLINK_WriteReg(R4, 0x00000000)  returns 0x00 (0000ms, 0486ms total)
T28E8 012:337 JLINK_WriteReg(R5, 0x00000000)  returns 0x00 (0000ms, 0486ms total)
T28E8 012:337 JLINK_WriteReg(R6, 0x00000000)  returns 0x00 (0000ms, 0486ms total)
T28E8 012:337 JLINK_WriteReg(R7, 0x00000000)  returns 0x00 (0000ms, 0486ms total)
T28E8 012:337 JLINK_WriteReg(R8, 0x00000000)  returns 0x00 (0000ms, 0486ms total)
T28E8 012:337 JLINK_WriteReg(R9, 0x20000414)  returns 0x00 (0000ms, 0486ms total)
T28E8 012:337 JLINK_WriteReg(R10, 0x00000000)  returns 0x00 (0000ms, 0486ms total)
T28E8 012:337 JLINK_WriteReg(R11, 0x00000000)  returns 0x00 (0000ms, 0486ms total)
T28E8 012:337 JLINK_WriteReg(R12, 0x00000000)  returns 0x00 (0000ms, 0486ms total)
T28E8 012:337 JLINK_WriteReg(R13 (SP), 0x20008000)  returns 0x00 (0000ms, 0486ms total)
T28E8 012:337 JLINK_WriteReg(R14, 0x20000001)  returns 0x00 (0000ms, 0486ms total)
T28E8 012:337 JLINK_WriteReg(R15 (PC), 0x2000029A)  returns 0x00 (0000ms, 0486ms total)
T28E8 012:337 JLINK_WriteReg(XPSR, 0x01000000)  returns 0x00 (0000ms, 0486ms total)
T28E8 012:337 JLINK_WriteReg(MSP, 0x20008000)  returns 0x00 (0000ms, 0486ms total)
T28E8 012:337 JLINK_WriteReg(PSP, 0x20008000)  returns 0x00 (0000ms, 0486ms total)
T28E8 012:337 JLINK_WriteReg(CFBP, 0x00000000)  returns 0x00 (0000ms, 0486ms total)
T28E8 012:337 JLINK_SetBPEx(Addr = 0x20000000, Type = 0xFFFFFFF2)  returns 0x00000008 (0000ms, 0486ms total)
T28E8 012:337 JLINK_Go() -- CPU_ReadMem(4 bytes @ 0xE0001000) (0001ms, 0487ms total)
T28E8 012:338 JLINK_IsHalted()  returns FALSE (0000ms, 0487ms total)
T28E8 012:340 JLINK_IsHalted()  returns FALSE (0000ms, 0487ms total)
T28E8 012:342 JLINK_IsHalted()  returns FALSE (0000ms, 0487ms total)
T28E8 012:345 JLINK_IsHalted()  returns FALSE (0000ms, 0487ms total)
T28E8 012:347 JLINK_IsHalted()  returns TRUE (0001ms, 0488ms total)
T28E8 012:348 JLINK_ReadReg(R15 (PC))  returns 0x20000000 (0000ms, 0487ms total)
T28E8 012:348 JLINK_ClrBPEx(BPHandle = 0x00000008)  returns 0x00 (0000ms, 0487ms total)
T28E8 012:348 JLINK_ReadReg(R0)  returns 0x00000000 (0000ms, 0487ms total)
T28E8 012:348 JLINK_WriteMem(0x20000418, 0x03E8 Bytes, ...) - Data: FF 38 28 69 00 26 5E 4C C0 43 C0 03 11 D4 20 78 ... -- CPU_WriteMem(1000 bytes @ 0x20000418)  returns 0x3E8 (0002ms, 0489ms total)
T28E8 012:350 JLINK_WriteMem(0x20000800, 0x0018 Bytes, ...) - Data: 02 D1 4F F0 08 0C 08 E0 DF F8 B4 C0 60 45 02 D1 ... -- CPU_WriteMem(24 bytes @ 0x20000800)  returns 0x18 (0000ms, 0489ms total)
T28E8 012:350 JLINK_WriteReg(R0, 0x08001000)  returns 0x00 (0000ms, 0489ms total)
T28E8 012:350 JLINK_WriteReg(R1, 0x00000400)  returns 0x00 (0000ms, 0489ms total)
T28E8 012:350 JLINK_WriteReg(R2, 0x20000418)  returns 0x00 (0000ms, 0489ms total)
T28E8 012:350 JLINK_WriteReg(R3, 0x00000000)  returns 0x00 (0000ms, 0489ms total)
T28E8 012:350 JLINK_WriteReg(R4, 0x00000000)  returns 0x00 (0000ms, 0489ms total)
T28E8 012:350 JLINK_WriteReg(R5, 0x00000000)  returns 0x00 (0000ms, 0489ms total)
T28E8 012:350 JLINK_WriteReg(R6, 0x00000000)  returns 0x00 (0000ms, 0489ms total)
T28E8 012:350 JLINK_WriteReg(R7, 0x00000000)  returns 0x00 (0000ms, 0489ms total)
T28E8 012:350 JLINK_WriteReg(R8, 0x00000000)  returns 0x00 (0001ms, 0490ms total)
T28E8 012:351 JLINK_WriteReg(R9, 0x20000414)  returns 0x00 (0000ms, 0490ms total)
T28E8 012:351 JLINK_WriteReg(R10, 0x00000000)  returns 0x00 (0000ms, 0490ms total)
T28E8 012:351 JLINK_WriteReg(R11, 0x00000000)  returns 0x00 (0000ms, 0490ms total)
T28E8 012:351 JLINK_WriteReg(R12, 0x00000000)  returns 0x00 (0000ms, 0490ms total)
T28E8 012:351 JLINK_WriteReg(R13 (SP), 0x20008000)  returns 0x00 (0000ms, 0490ms total)
T28E8 012:351 JLINK_WriteReg(R14, 0x20000001)  returns 0x00 (0000ms, 0490ms total)
T28E8 012:351 JLINK_WriteReg(R15 (PC), 0x2000029A)  returns 0x00 (0000ms, 0490ms total)
T28E8 012:351 JLINK_WriteReg(XPSR, 0x01000000)  returns 0x00 (0000ms, 0490ms total)
T28E8 012:351 JLINK_WriteReg(MSP, 0x20008000)  returns 0x00 (0000ms, 0490ms total)
T28E8 012:351 JLINK_WriteReg(PSP, 0x20008000)  returns 0x00 (0000ms, 0490ms total)
T28E8 012:351 JLINK_WriteReg(CFBP, 0x00000000)  returns 0x00 (0000ms, 0490ms total)
T28E8 012:351 JLINK_SetBPEx(Addr = 0x20000000, Type = 0xFFFFFFF2)  returns 0x00000009 (0000ms, 0490ms total)
T28E8 012:351 JLINK_Go() -- CPU_ReadMem(4 bytes @ 0xE0001000) (0001ms, 0491ms total)
T28E8 012:352 JLINK_IsHalted()  returns FALSE (0000ms, 0491ms total)
T28E8 012:354 JLINK_IsHalted()  returns FALSE (0000ms, 0491ms total)
T28E8 012:356 JLINK_IsHalted()  returns FALSE (0000ms, 0491ms total)
T28E8 012:358 JLINK_IsHalted()  returns FALSE (0000ms, 0491ms total)
T28E8 012:360 JLINK_IsHalted()  returns FALSE (0000ms, 0491ms total)
T28E8 012:362 JLINK_IsHalted()  returns TRUE (0001ms, 0492ms total)
T28E8 012:363 JLINK_ReadReg(R15 (PC))  returns 0x20000000 (0000ms, 0491ms total)
T28E8 012:363 JLINK_ClrBPEx(BPHandle = 0x00000009)  returns 0x00 (0000ms, 0491ms total)
T28E8 012:363 JLINK_ReadReg(R0)  returns 0x00000000 (0000ms, 0491ms total)
T28E8 012:363 JLINK_WriteMem(0x20000418, 0x03E8 Bytes, ...) - Data: 0A 0C 0C FA 07 FC A4 45 13 D1 2C 68 9C 43 2C 60 ... -- CPU_WriteMem(1000 bytes @ 0x20000418)  returns 0x3E8 (0002ms, 0493ms total)
T28E8 012:365 JLINK_WriteMem(0x20000800, 0x0018 Bytes, ...) - Data: 40 EA 0C 20 40 EA 46 00 40 EA 0E 00 01 E0 00 20 ... -- CPU_WriteMem(24 bytes @ 0x20000800)  returns 0x18 (0000ms, 0493ms total)
T28E8 012:365 JLINK_WriteReg(R0, 0x08001400)  returns 0x00 (0000ms, 0493ms total)
T28E8 012:365 JLINK_WriteReg(R1, 0x00000400)  returns 0x00 (0000ms, 0493ms total)
T28E8 012:365 JLINK_WriteReg(R2, 0x20000418)  returns 0x00 (0000ms, 0493ms total)
T28E8 012:365 JLINK_WriteReg(R3, 0x00000000)  returns 0x00 (0001ms, 0494ms total)
T28E8 012:366 JLINK_WriteReg(R4, 0x00000000)  returns 0x00 (0000ms, 0494ms total)
T28E8 012:366 JLINK_WriteReg(R5, 0x00000000)  returns 0x00 (0000ms, 0494ms total)
T28E8 012:366 JLINK_WriteReg(R6, 0x00000000)  returns 0x00 (0000ms, 0494ms total)
T28E8 012:366 JLINK_WriteReg(R7, 0x00000000)  returns 0x00 (0000ms, 0494ms total)
T28E8 012:366 JLINK_WriteReg(R8, 0x00000000)  returns 0x00 (0000ms, 0494ms total)
T28E8 012:366 JLINK_WriteReg(R9, 0x20000414)  returns 0x00 (0000ms, 0494ms total)
T28E8 012:366 JLINK_WriteReg(R10, 0x00000000)  returns 0x00 (0000ms, 0494ms total)
T28E8 012:366 JLINK_WriteReg(R11, 0x00000000)  returns 0x00 (0000ms, 0494ms total)
T28E8 012:366 JLINK_WriteReg(R12, 0x00000000)  returns 0x00 (0000ms, 0494ms total)
T28E8 012:366 JLINK_WriteReg(R13 (SP), 0x20008000)  returns 0x00 (0000ms, 0494ms total)
T28E8 012:366 JLINK_WriteReg(R14, 0x20000001)  returns 0x00 (0000ms, 0494ms total)
T28E8 012:366 JLINK_WriteReg(R15 (PC), 0x2000029A)  returns 0x00 (0000ms, 0494ms total)
T28E8 012:366 JLINK_WriteReg(XPSR, 0x01000000)  returns 0x00 (0000ms, 0494ms total)
T28E8 012:366 JLINK_WriteReg(MSP, 0x20008000)  returns 0x00 (0000ms, 0494ms total)
T28E8 012:366 JLINK_WriteReg(PSP, 0x20008000)  returns 0x00 (0000ms, 0494ms total)
T28E8 012:366 JLINK_WriteReg(CFBP, 0x00000000)  returns 0x00 (0000ms, 0494ms total)
T28E8 012:366 JLINK_SetBPEx(Addr = 0x20000000, Type = 0xFFFFFFF2)  returns 0x0000000A (0000ms, 0494ms total)
T28E8 012:366 JLINK_Go() -- CPU_ReadMem(4 bytes @ 0xE0001000) (0001ms, 0495ms total)
T28E8 012:367 JLINK_IsHalted()  returns FALSE (0000ms, 0495ms total)
T28E8 012:369 JLINK_IsHalted()  returns FALSE (0000ms, 0495ms total)
T28E8 012:371 JLINK_IsHalted()  returns FALSE (0000ms, 0495ms total)
T28E8 012:373 JLINK_IsHalted()  returns FALSE (0000ms, 0495ms total)
T28E8 012:375 JLINK_IsHalted()  returns FALSE (0000ms, 0495ms total)
T28E8 012:377 JLINK_IsHalted()  returns TRUE (0000ms, 0495ms total)
T28E8 012:377 JLINK_ReadReg(R15 (PC))  returns 0x20000000 (0000ms, 0495ms total)
T28E8 012:377 JLINK_ClrBPEx(BPHandle = 0x0000000A)  returns 0x00 (0000ms, 0495ms total)
T28E8 012:377 JLINK_ReadReg(R0)  returns 0x00000000 (0000ms, 0495ms total)
T28E8 012:378 JLINK_WriteMem(0x20000418, 0x03E8 Bytes, ...) - Data: 98 ED 00 E0 BF F3 5F 8F 04 48 00 21 03 68 03 4A ... -- CPU_WriteMem(1000 bytes @ 0x20000418)  returns 0x3E8 (0002ms, 0497ms total)
T28E8 012:380 JLINK_WriteMem(0x20000800, 0x0018 Bytes, ...) - Data: EA D8 28 22 41 46 68 46 FE F7 59 FC 94 E8 0F 00 ... -- CPU_WriteMem(24 bytes @ 0x20000800)  returns 0x18 (0000ms, 0497ms total)
T28E8 012:380 JLINK_WriteReg(R0, 0x08001800)  returns 0x00 (0000ms, 0497ms total)
T28E8 012:380 JLINK_WriteReg(R1, 0x00000400)  returns 0x00 (0000ms, 0497ms total)
T28E8 012:380 JLINK_WriteReg(R2, 0x20000418)  returns 0x00 (0000ms, 0497ms total)
T28E8 012:380 JLINK_WriteReg(R3, 0x00000000)  returns 0x00 (0000ms, 0497ms total)
T28E8 012:380 JLINK_WriteReg(R4, 0x00000000)  returns 0x00 (0000ms, 0497ms total)
T28E8 012:380 JLINK_WriteReg(R5, 0x00000000)  returns 0x00 (0000ms, 0497ms total)
T28E8 012:380 JLINK_WriteReg(R6, 0x00000000)  returns 0x00 (0000ms, 0497ms total)
T28E8 012:380 JLINK_WriteReg(R7, 0x00000000)  returns 0x00 (0000ms, 0497ms total)
T28E8 012:380 JLINK_WriteReg(R8, 0x00000000)  returns 0x00 (0000ms, 0497ms total)
T28E8 012:380 JLINK_WriteReg(R9, 0x20000414)  returns 0x00 (0000ms, 0497ms total)
T28E8 012:380 JLINK_WriteReg(R10, 0x00000000)  returns 0x00 (0000ms, 0497ms total)
T28E8 012:380 JLINK_WriteReg(R11, 0x00000000)  returns 0x00 (0000ms, 0497ms total)
T28E8 012:380 JLINK_WriteReg(R12, 0x00000000)  returns 0x00 (0000ms, 0497ms total)
T28E8 012:380 JLINK_WriteReg(R13 (SP), 0x20008000)  returns 0x00 (0000ms, 0497ms total)
T28E8 012:380 JLINK_WriteReg(R14, 0x20000001)  returns 0x00 (0000ms, 0497ms total)
T28E8 012:380 JLINK_WriteReg(R15 (PC), 0x2000029A)  returns 0x00 (0000ms, 0497ms total)
T28E8 012:380 JLINK_WriteReg(XPSR, 0x01000000)  returns 0x00 (0000ms, 0497ms total)
T28E8 012:380 JLINK_WriteReg(MSP, 0x20008000)  returns 0x00 (0000ms, 0497ms total)
T28E8 012:380 JLINK_WriteReg(PSP, 0x20008000)  returns 0x00 (0000ms, 0497ms total)
T28E8 012:380 JLINK_WriteReg(CFBP, 0x00000000)  returns 0x00 (0000ms, 0497ms total)
T28E8 012:380 JLINK_SetBPEx(Addr = 0x20000000, Type = 0xFFFFFFF2)  returns 0x0000000B (0000ms, 0497ms total)
T28E8 012:381 JLINK_Go() -- CPU_ReadMem(4 bytes @ 0xE0001000) (0001ms, 0499ms total)
T28E8 012:382 JLINK_IsHalted()  returns FALSE (0000ms, 0499ms total)
T28E8 012:384 JLINK_IsHalted()  returns FALSE (0000ms, 0499ms total)
T28E8 012:386 JLINK_IsHalted()  returns FALSE (0000ms, 0499ms total)
T28E8 012:388 JLINK_IsHalted()  returns FALSE (0000ms, 0499ms total)
T28E8 012:391 JLINK_IsHalted()  returns TRUE (0001ms, 0500ms total)
T28E8 012:392 JLINK_ReadReg(R15 (PC))  returns 0x20000000 (0000ms, 0499ms total)
T28E8 012:392 JLINK_ClrBPEx(BPHandle = 0x0000000B)  returns 0x00 (0000ms, 0499ms total)
T28E8 012:392 JLINK_ReadReg(R0)  returns 0x00000000 (0000ms, 0499ms total)
T28E8 012:392 JLINK_WriteMem(0x20000418, 0x03E8 Bytes, ...) - Data: BD 74 A0 E7 60 6A 84 F8 38 50 84 F8 BD 64 01 28 ... -- CPU_WriteMem(1000 bytes @ 0x20000418)  returns 0x3E8 (0002ms, 0501ms total)
T28E8 012:394 JLINK_WriteMem(0x20000800, 0x0018 Bytes, ...) - Data: DF ED 09 2A BA E7 00 21 01 60 41 60 81 60 F3 E7 ... -- CPU_WriteMem(24 bytes @ 0x20000800)  returns 0x18 (0000ms, 0501ms total)
T28E8 012:394 JLINK_WriteReg(R0, 0x08001C00)  returns 0x00 (0000ms, 0501ms total)
T28E8 012:394 JLINK_WriteReg(R1, 0x00000400)  returns 0x00 (0001ms, 0502ms total)
T28E8 012:395 JLINK_WriteReg(R2, 0x20000418)  returns 0x00 (0000ms, 0502ms total)
T28E8 012:395 JLINK_WriteReg(R3, 0x00000000)  returns 0x00 (0000ms, 0502ms total)
T28E8 012:395 JLINK_WriteReg(R4, 0x00000000)  returns 0x00 (0000ms, 0502ms total)
T28E8 012:395 JLINK_WriteReg(R5, 0x00000000)  returns 0x00 (0000ms, 0502ms total)
T28E8 012:395 JLINK_WriteReg(R6, 0x00000000)  returns 0x00 (0000ms, 0502ms total)
T28E8 012:395 JLINK_WriteReg(R7, 0x00000000)  returns 0x00 (0000ms, 0502ms total)
T28E8 012:395 JLINK_WriteReg(R8, 0x00000000)  returns 0x00 (0000ms, 0502ms total)
T28E8 012:395 JLINK_WriteReg(R9, 0x20000414)  returns 0x00 (0000ms, 0502ms total)
T28E8 012:395 JLINK_WriteReg(R10, 0x00000000)  returns 0x00 (0000ms, 0502ms total)
T28E8 012:395 JLINK_WriteReg(R11, 0x00000000)  returns 0x00 (0000ms, 0502ms total)
T28E8 012:395 JLINK_WriteReg(R12, 0x00000000)  returns 0x00 (0000ms, 0502ms total)
T28E8 012:395 JLINK_WriteReg(R13 (SP), 0x20008000)  returns 0x00 (0000ms, 0502ms total)
T28E8 012:395 JLINK_WriteReg(R14, 0x20000001)  returns 0x00 (0000ms, 0502ms total)
T28E8 012:395 JLINK_WriteReg(R15 (PC), 0x2000029A)  returns 0x00 (0000ms, 0502ms total)
T28E8 012:395 JLINK_WriteReg(XPSR, 0x01000000)  returns 0x00 (0000ms, 0502ms total)
T28E8 012:395 JLINK_WriteReg(MSP, 0x20008000)  returns 0x00 (0000ms, 0502ms total)
T28E8 012:395 JLINK_WriteReg(PSP, 0x20008000)  returns 0x00 (0000ms, 0502ms total)
T28E8 012:395 JLINK_WriteReg(CFBP, 0x00000000)  returns 0x00 (0000ms, 0502ms total)
T28E8 012:395 JLINK_SetBPEx(Addr = 0x20000000, Type = 0xFFFFFFF2)  returns 0x0000000C (0000ms, 0502ms total)
T28E8 012:395 JLINK_Go() -- CPU_ReadMem(4 bytes @ 0xE0001000) (0001ms, 0503ms total)
T28E8 012:396 JLINK_IsHalted()  returns FALSE (0000ms, 0503ms total)
T28E8 012:398 JLINK_IsHalted()  returns FALSE (0000ms, 0503ms total)
T28E8 012:400 JLINK_IsHalted()  returns FALSE (0000ms, 0503ms total)
T28E8 012:402 JLINK_IsHalted()  returns FALSE (0000ms, 0503ms total)
T28E8 012:404 JLINK_IsHalted()  returns FALSE (0000ms, 0503ms total)
T28E8 012:406 JLINK_IsHalted()  returns TRUE (0001ms, 0504ms total)
T28E8 012:407 JLINK_ReadReg(R15 (PC))  returns 0x20000000 (0000ms, 0503ms total)
T28E8 012:407 JLINK_ClrBPEx(BPHandle = 0x0000000C)  returns 0x00 (0000ms, 0503ms total)
T28E8 012:407 JLINK_ReadReg(R0)  returns 0x00000000 (0000ms, 0503ms total)
T28E8 012:407 JLINK_WriteMem(0x20000418, 0x03E8 Bytes, ...) - Data: 40 44 02 58 00 24 74 4A 00 90 D0 03 00 24 74 4C ... -- CPU_WriteMem(1000 bytes @ 0x20000418)  returns 0x3E8 (0002ms, 0505ms total)
T28E8 012:409 JLINK_WriteMem(0x20000800, 0x0018 Bytes, ...) - Data: 03 01 11 43 01 60 E6 E7 FF F7 7E F9 A0 EB 0A 00 ... -- CPU_WriteMem(24 bytes @ 0x20000800)  returns 0x18 (0001ms, 0506ms total)
T28E8 012:410 JLINK_WriteReg(R0, 0x08002000)  returns 0x00 (0000ms, 0506ms total)
T28E8 012:410 JLINK_WriteReg(R1, 0x00000400)  returns 0x00 (0000ms, 0506ms total)
T28E8 012:410 JLINK_WriteReg(R2, 0x20000418)  returns 0x00 (0000ms, 0506ms total)
T28E8 012:410 JLINK_WriteReg(R3, 0x00000000)  returns 0x00 (0000ms, 0506ms total)
T28E8 012:410 JLINK_WriteReg(R4, 0x00000000)  returns 0x00 (0000ms, 0506ms total)
T28E8 012:410 JLINK_WriteReg(R5, 0x00000000)  returns 0x00 (0000ms, 0506ms total)
T28E8 012:410 JLINK_WriteReg(R6, 0x00000000)  returns 0x00 (0000ms, 0506ms total)
T28E8 012:410 JLINK_WriteReg(R7, 0x00000000)  returns 0x00 (0000ms, 0506ms total)
T28E8 012:410 JLINK_WriteReg(R8, 0x00000000)  returns 0x00 (0000ms, 0506ms total)
T28E8 012:410 JLINK_WriteReg(R9, 0x20000414)  returns 0x00 (0000ms, 0506ms total)
T28E8 012:410 JLINK_WriteReg(R10, 0x00000000)  returns 0x00 (0000ms, 0506ms total)
T28E8 012:410 JLINK_WriteReg(R11, 0x00000000)  returns 0x00 (0000ms, 0506ms total)
T28E8 012:410 JLINK_WriteReg(R12, 0x00000000)  returns 0x00 (0000ms, 0506ms total)
T28E8 012:410 JLINK_WriteReg(R13 (SP), 0x20008000)  returns 0x00 (0000ms, 0506ms total)
T28E8 012:410 JLINK_WriteReg(R14, 0x20000001)  returns 0x00 (0000ms, 0506ms total)
T28E8 012:410 JLINK_WriteReg(R15 (PC), 0x2000029A)  returns 0x00 (0000ms, 0506ms total)
T28E8 012:410 JLINK_WriteReg(XPSR, 0x01000000)  returns 0x00 (0000ms, 0506ms total)
T28E8 012:410 JLINK_WriteReg(MSP, 0x20008000)  returns 0x00 (0000ms, 0506ms total)
T28E8 012:410 JLINK_WriteReg(PSP, 0x20008000)  returns 0x00 (0000ms, 0506ms total)
T28E8 012:410 JLINK_WriteReg(CFBP, 0x00000000)  returns 0x00 (0000ms, 0506ms total)
T28E8 012:410 JLINK_SetBPEx(Addr = 0x20000000, Type = 0xFFFFFFF2)  returns 0x0000000D (0000ms, 0506ms total)
T28E8 012:410 JLINK_Go() -- CPU_ReadMem(4 bytes @ 0xE0001000) (0001ms, 0507ms total)
T28E8 012:411 JLINK_IsHalted()  returns FALSE (0000ms, 0507ms total)
T28E8 012:413 JLINK_IsHalted()  returns FALSE (0000ms, 0507ms total)
T28E8 012:415 JLINK_IsHalted()  returns FALSE (0000ms, 0507ms total)
T28E8 012:417 JLINK_IsHalted()  returns FALSE (0000ms, 0507ms total)
T28E8 012:419 JLINK_IsHalted()  returns FALSE (0000ms, 0507ms total)
T28E8 012:421 JLINK_IsHalted()  returns TRUE (0001ms, 0508ms total)
T28E8 012:422 JLINK_ReadReg(R15 (PC))  returns 0x20000000 (0000ms, 0507ms total)
T28E8 012:422 JLINK_ClrBPEx(BPHandle = 0x0000000D)  returns 0x00 (0000ms, 0507ms total)
T28E8 012:422 JLINK_ReadReg(R0)  returns 0x00000000 (0000ms, 0507ms total)
T28E8 012:422 JLINK_WriteMem(0x20000418, 0x03E8 Bytes, ...) - Data: C0 05 F5 D5 7D BB DF F8 1C A0 B4 F8 B0 20 0A F1 ... -- CPU_WriteMem(1000 bytes @ 0x20000418)  returns 0x3E8 (0002ms, 0509ms total)
T28E8 012:424 JLINK_WriteMem(0x20000800, 0x0018 Bytes, ...) - Data: 01 26 20 68 80 03 1B D5 E0 6F B8 B1 B0 F5 80 7F ... -- CPU_WriteMem(24 bytes @ 0x20000800)  returns 0x18 (0000ms, 0509ms total)
T28E8 012:424 JLINK_WriteReg(R0, 0x08002400)  returns 0x00 (0000ms, 0509ms total)
T28E8 012:424 JLINK_WriteReg(R1, 0x00000400)  returns 0x00 (0000ms, 0509ms total)
T28E8 012:424 JLINK_WriteReg(R2, 0x20000418)  returns 0x00 (0000ms, 0509ms total)
T28E8 012:424 JLINK_WriteReg(R3, 0x00000000)  returns 0x00 (0000ms, 0509ms total)
T28E8 012:424 JLINK_WriteReg(R4, 0x00000000)  returns 0x00 (0000ms, 0509ms total)
T28E8 012:425 JLINK_WriteReg(R5, 0x00000000)  returns 0x00 (0000ms, 0510ms total)
T28E8 012:425 JLINK_WriteReg(R6, 0x00000000)  returns 0x00 (0000ms, 0510ms total)
T28E8 012:425 JLINK_WriteReg(R7, 0x00000000)  returns 0x00 (0000ms, 0510ms total)
T28E8 012:425 JLINK_WriteReg(R8, 0x00000000)  returns 0x00 (0000ms, 0510ms total)
T28E8 012:425 JLINK_WriteReg(R9, 0x20000414)  returns 0x00 (0000ms, 0510ms total)
T28E8 012:425 JLINK_WriteReg(R10, 0x00000000)  returns 0x00 (0000ms, 0510ms total)
T28E8 012:425 JLINK_WriteReg(R11, 0x00000000)  returns 0x00 (0000ms, 0510ms total)
T28E8 012:425 JLINK_WriteReg(R12, 0x00000000)  returns 0x00 (0000ms, 0510ms total)
T28E8 012:425 JLINK_WriteReg(R13 (SP), 0x20008000)  returns 0x00 (0000ms, 0510ms total)
T28E8 012:425 JLINK_WriteReg(R14, 0x20000001)  returns 0x00 (0000ms, 0510ms total)
T28E8 012:425 JLINK_WriteReg(R15 (PC), 0x2000029A)  returns 0x00 (0000ms, 0510ms total)
T28E8 012:425 JLINK_WriteReg(XPSR, 0x01000000)  returns 0x00 (0000ms, 0510ms total)
T28E8 012:425 JLINK_WriteReg(MSP, 0x20008000)  returns 0x00 (0000ms, 0510ms total)
T28E8 012:425 JLINK_WriteReg(PSP, 0x20008000)  returns 0x00 (0000ms, 0510ms total)
T28E8 012:425 JLINK_WriteReg(CFBP, 0x00000000)  returns 0x00 (0000ms, 0510ms total)
T28E8 012:425 JLINK_SetBPEx(Addr = 0x20000000, Type = 0xFFFFFFF2)  returns 0x0000000E (0000ms, 0510ms total)
T28E8 012:425 JLINK_Go() -- CPU_ReadMem(4 bytes @ 0xE0001000) (0001ms, 0511ms total)
T28E8 012:426 JLINK_IsHalted()  returns FALSE (0000ms, 0511ms total)
T28E8 012:428 JLINK_IsHalted()  returns FALSE (0000ms, 0511ms total)
T28E8 012:430 JLINK_IsHalted()  returns FALSE (0000ms, 0511ms total)
T28E8 012:432 JLINK_IsHalted()  returns FALSE (0000ms, 0511ms total)
T28E8 012:434 JLINK_IsHalted()  returns FALSE (0000ms, 0511ms total)
T28E8 012:436 JLINK_IsHalted()  returns TRUE (0001ms, 0512ms total)
T28E8 012:437 JLINK_ReadReg(R15 (PC))  returns 0x20000000 (0000ms, 0511ms total)
T28E8 012:437 JLINK_ClrBPEx(BPHandle = 0x0000000E)  returns 0x00 (0000ms, 0511ms total)
T28E8 012:437 JLINK_ReadReg(R0)  returns 0x00000000 (0000ms, 0511ms total)
T28E8 012:437 JLINK_WriteMem(0x20000418, 0x03E8 Bytes, ...) - Data: B0 F5 40 7F 0E D0 01 25 0D E0 2E 48 E2 6C 08 38 ... -- CPU_WriteMem(1000 bytes @ 0x20000418)  returns 0x3E8 (0002ms, 0513ms total)
T28E8 012:439 JLINK_WriteMem(0x20000800, 0x0018 Bytes, ...) - Data: 10 2A 0B D0 18 2A 0B D0 08 46 70 BD 19 68 89 06 ... -- CPU_WriteMem(24 bytes @ 0x20000800)  returns 0x18 (0000ms, 0513ms total)
T28E8 012:439 JLINK_WriteReg(R0, 0x08002800)  returns 0x00 (0000ms, 0513ms total)
T28E8 012:439 JLINK_WriteReg(R1, 0x00000400)  returns 0x00 (0000ms, 0513ms total)
T28E8 012:440 JLINK_WriteReg(R2, 0x20000418)  returns 0x00 (0000ms, 0514ms total)
T28E8 012:440 JLINK_WriteReg(R3, 0x00000000)  returns 0x00 (0000ms, 0514ms total)
T28E8 012:440 JLINK_WriteReg(R4, 0x00000000)  returns 0x00 (0000ms, 0514ms total)
T28E8 012:440 JLINK_WriteReg(R5, 0x00000000)  returns 0x00 (0000ms, 0514ms total)
T28E8 012:440 JLINK_WriteReg(R6, 0x00000000)  returns 0x00 (0000ms, 0514ms total)
T28E8 012:440 JLINK_WriteReg(R7, 0x00000000)  returns 0x00 (0000ms, 0514ms total)
T28E8 012:440 JLINK_WriteReg(R8, 0x00000000)  returns 0x00 (0000ms, 0514ms total)
T28E8 012:440 JLINK_WriteReg(R9, 0x20000414)  returns 0x00 (0000ms, 0514ms total)
T28E8 012:440 JLINK_WriteReg(R10, 0x00000000)  returns 0x00 (0000ms, 0514ms total)
T28E8 012:440 JLINK_WriteReg(R11, 0x00000000)  returns 0x00 (0000ms, 0514ms total)
T28E8 012:440 JLINK_WriteReg(R12, 0x00000000)  returns 0x00 (0000ms, 0514ms total)
