00 01 01 01 02 00 00 00 08 79 CC 
00 02 02 02 02 00 00 00 08 79 FF 
00 03 03 03 02 00 00 00 08 78 2E 
00 04 04 04 02 00 00 00 08 79 99 
00 05 05 05 05 00 00 01 00 CD DE 
00 06 06 06 05 00 00 01 00 CD ED 
00 07 07 07 05 00 00 01 00 CC 3C 
00 08 08 08 05 00 00 01 00 CC C3 
00 09 09 09 05 00 00 01 00 CD 12 
00 0A 0A 0A 05 00 00 01 00 CD 21 
00 0B 0B 0B 05 00 00 01 00 CC F0 
00 0C 0C 0C 05 00 00 01 00 CD 47 
00 0D 0D 0D 05 00 00 00 00 CD 06 
00 0E 0E 0E 05 00 00 00 00 CD 35 
00 0F 0F 0F 05 00 00 00 00 CC E4 
00 10 10 10 05 00 00 00 00 CE 8B 
00 01 01 01 02 00 00 00 08 79 CC 
00 02 02 02 02 00 00 00 08 79 FF 
00 03 03 03 02 00 00 00 08 78 2E 
00 01 01 01 02 00 00 00 08 79 CC 
00 02 02 02 02 00 00 00 08 79 FF 
00 03 03 03 02 00 00 00 08 78 2E 
00 04 04 04 02 00 00 00 08 79 99 

00 01 01 01 02 00 00 00 08 79 CC 
00 02 02 02 02 00 00 00 08 79 FF 
00 03 03 03 02 00 00 00 08 78 2E 
00 05 05 05 05 00 00 01 00 CD DE 

00 01 01 01 02 00 00 00 08 79 CC 
00 02 02 02 02 00 00 00 08 79 FF 
00 03 03 03 02 00 00 00 08 78 2E 
00 06 06 06 05 00 00 01 00 CD ED 

00 01 01 01 02 00 00 00 08 79 CC 
00 02 02 02 02 00 00 00 08 79 FF 
00 03 03 03 02 00 00 00 08 78 2E 
00 07 07 07 05 00 00 01 00 CC 3C 

00 01 01 01 02 00 00 00 08 79 CC 
00 02 02 02 02 00 00 00 08 79 FF 
00 03 03 03 02 00 00 00 08 78 2E 
00 08 08 08 05 00 00 01 00 CC C3 

00 01 01 01 02 00 00 00 08 79 CC 
00 02 02 02 02 00 00 00 08 79 FF 
00 03 03 03 02 00 00 00 08 78 2E 
00 09 09 09 05 00 00 01 00 CD 12 

00 01 01 01 02 00 00 00 08 79 CC 
00 02 02 02 02 00 00 00 08 79 FF 
00 03 03 03 02 00 00 00 08 78 2E 
00 0A 0A 0A 05 00 00 01 00 CD 21 

00 01 01 01 02 00 00 00 08 79 CC 
00 02 02 02 02 00 00 00 08 79 FF 
00 03 03 03 02 00 00 00 08 78 2E 
00 0B 0B 0B 05 00 00 01 00 CC F0 

00 01 01 01 02 00 00 00 08 79 CC 
00 02 02 02 02 00 00 00 08 79 FF 
00 03 03 03 02 00 00 00 08 78 2E 
00 0C 0C 0C 05 00 00 01 00 CD 47 

00 01 01 01 02 00 00 00 08 79 CC 
00 02 02 02 02 00 00 00 08 79 FF 
00 03 03 03 02 00 00 00 08 78 2E 
00 0D 0D 0D 05 00 00 00 00 CD 06 

00 01 01 01 02 00 00 00 08 79 CC 
00 02 02 02 02 00 00 00 08 79 FF 
00 03 03 03 02 00 00 00 08 78 2E 
00 0E 0E 0E 05 00 00 00 00 CD 35 

00 01 01 01 02 00 00 00 08 79 CC 
00 02 02 02 02 00 00 00 08 79 FF 
00 03 03 03 02 00 00 00 08 78 2E 
00 0F 0F 0F 05 00 00 00 00 CC E4 

00 01 01 01 02 00 00 00 08 79 CC 
00 02 02 02 02 00 00 00 08 79 FF 
00 03 03 03 02 00 00 00 08 78 2E 
00 10 10 10 05 00 00 00 00 CE 8B 

00 01 01 01 02 00 00 00 08 79 CC 
00 02 02 02 02 00 00 00 08 79 FF 
00 03 03 03 02 00 00 00 08 78 2E 
00 04 04 04 02 00 00 00 08 79 99 

00 01 01 01 02 00 00 00 08 79 CC 
00 02 02 02 02 00 00 00 08 79 FF 
00 03 03 03 02 00 00 00 08 78 2E 
00 05 05 05 05 00 00 01 00 CD DE
 
00 01 01 01 02 00 00 00 08 79 CC 00 02 02 02 02 00 00 00 08 79 FF 00 03 03 03 02 00 00 00 08 78 2E 00 06 06 06 05 00 00 01 00 CD ED 00 01 01 01 02 00 00 00 08 79 CC 00 02 02 02 02 00 00 00 08 79 FF 00 03 03 03 02 00 00 00 08 78 2E 00 07 07 07 05 00 00 01 00 CC 3C 00 01 01 01 02 00 00 00 08 79 CC 00 02 02 02 02 00 00 00 08 79 FF 00 03 03 03 02 00 00 00 08 78 2E 00 08 08 08 05 00 00 01 00 CC C3 00 01 01 01 02 00 00 00 08 79 CC 00 02 02 02 02 00 00 00 08 79 FF 00 03 03 03 02 00 00 00 08 78 2E 00 09 09 09 05 00 00 01 00 CD 12 00 01 01 01 02 00 00 00 08 79 CC 00 02 02 02 02 00 00 00 08 79 FF 00 03 03 03 02 00 00 00 08 78 2E 00 0A 0A 0A 05 00 00 01 00 CD 21 00 01 01 01 02 00 00 00 08 79 CC 00 02 02 02 02 00 00 00 08 79 FF 00 03 03 03 02 00 00 00 08 78 2E 00 0B 0B 0B 05 00 00 01 00 CC F0 00 01 01 01 02 00 00 00 08 79 CC 00 02 02 02 02 00 00 00 08 79 FF 00 03 03 03 02 00 00 00 08 78 2E 00 0C 0C 0C 05 00 00 01 00 CD 47 00 01 01 01 02 00 00 00 08 79 CC 00 02 02 02 02 00 00 00 08 79 FF 00 03 03 03 02 00 00 00 08 78 2E 00 0D 0D 0D 05 00 00 00 00 CD 06 00 01 01 01 02 00 00 00 08 79 CC 00 02 02 02 02 00 00 00 08 79 FF 00 03 03 03 02 00 00 00 08 78 2E 00 0E 0E 0E 05 00 00 00 00 CD 35 00 01 01 01 02 00 00 00 08 79 CC 00 02 02 02 02 00 00 00 08 79 FF 00 03 03 03 02 00 00 00 08 78 2E 00 0F 0F 0F 05 00 00 00 00 CC E4 00 01 01 01 02 00 00 00 08 79 CC 00 02 02 02 02 00 00 00 08 79 FF 00 03 03 03 02 00 00 00 08 78 2E 00 10 10 10 05 00 00 00 00 CE 8B 00 01 01 01 02 00 00 00 08 79 CC 00 02 02 02 02 00 00 00 08 79 FF 00 03 03 03 02 00 00 00 08 78 2E 00 04 04 04 02 00 00 00 08 79 99 00 01 01 01 02 00 00 00 08 79 CC 00 02 02 02 02 00 00 00 08 79 FF 00 03 03 03 02 00 00 00 08 78 2E 00 05 05 05 05 00 00 01 00 CD DE 00 01 01 01 02 00 00 00 08 79 CC 00 02 02 02 02 00 00 00 08 79 FF 00 03 03 03 02 00 00 00 08 78 2E 00 06 06 06 05 00 00 00 00 CC 7D 00 01 01 01 02 00 00 00 08 79 CC 00 02 02 02 02 00 00 00 08 79 FF 00 03 03 03 02 00 00 00 08 78 2E 00 07 07 07 05 00 00 00 00 CD AC 00 01 01 01 02 00 00 00 08 79 CC 00 02 02 02 02 00 00 00 08 79 FF 00 03 03 03 02 00 00 00 08 78 2E 00 08 08 08 05 00 00 00 00 CD 53 00 01 01 01 02 00 00 00 08 79 CC 00 02 02 02 02 00 00 00 08 79 FF 00 03 03 03 02 00 00 00 08 78 2E 00 09 09 09 05 00 00 01 00 CD 12 00 01 01 01 02 00 00 00 08 79 CC 00 02 02 02 02 00 00 00 08 79 FF 00 03 03 03 02 00 00 00 08 78 2E 00 0A 0A 0A 05 00 00 01 00 CD 21 00 01 01 01 02 00 00 00 08 79 CC 00 02 02 02 02 00 00 00 08 79 FF 00 03 03 03 02 00 00 00 08 78 2E 00 0B 0B 0B 05 00 00 01 00 CC F0 00 01 01 01 02 00 00 00 08 79 CC 00 02 02 02 02 00 00 00 08 79 FF 00 03 03 03 02 00 00 00 08 78 2E 00 0C 0C 0C 05 00 00 01 00 CD 47 00 01 01 01 02 00 00 00 08 79 CC 00 02 02 02 02 00 00 00 08 79 FF 00 03 03 03 02 00 00 00 08 78 2E 00 0D 0D 0D 05 00 00 00 00 CD 06 00 01 01 01 02 00 00 00 08 79 CC 00 02 02 02 02 00 00 00 08 79 FF 00 03 03 03 02 00 00 00 08 78 2E 00 0E 0E 0E 05 00 00 00 00 CD 35 00 01 01 01 02 00 00 00 08 79 CC 00 02 02 02 02 00 00 00 08 79 FF 00 03 03 03 02 00 00 00 08 78 2E 00 0F 0F 0F 05 00 00 00 00 CC E4 00 01 01 01 02 00 00 00 08 79 CC 00 02 02 02 02 00 00 00 08 79 FF 00 03 03 03 02 00 00 00 08 78 2E 00 10 10 10 05 00 00 00 00 CE 8B 00 01 01 01 02 00 00 00 08 79 CC 00 02 02 02 02 00 00 00 08 79 FF 00 03 03 03 02 00 00 00 08 78 2E 00 04 04 04 02 00 00 00 08 79 99 00 01 01 01 02 00 00 00 08 79 CC 00 02 02 02 02 00 00 00 08 79 FF 00 03 03 03 02 00 00 00 08 78 2E 00 05 05 05 05 00 00 01 00 CD DE 00 01 01 01 02 00 00 00 08 79 CC 00 02 02 02 02 00 00 00 08 79 FF 00 03 03 03 02 00 00 00 08 78 2E 00 06 06 06 05 00 00 01 00 CD ED 00 01 01 01 02 00 00 00 08 79 CC 00 02 02 02 02 00 00 00 08 79 FF 00 03 03 03 02 00 00 00 08 78 2E 00 07 07 07 05 00 00 01 00 CC 3C 00 01 01 01 02 00 00 00 08 79 CC 00 02 02 02 02 00 00 00 08 79 FF 00 03 03 03 02 00 00 00 08 78 2E 00 08 08 08 05 00 00 01 00 CC C3 00 01 01 01 02 00 00 00 08 79 CC 00 02 02 02 02 00 00 00 08 79 FF 00 03 03 03 02 00 00 00 08 78 2E 00 09 09 09 05 00 00 01 00 CD 12 00 01 01 01 02 00 00 00 08 79 CC 00 02 02 02 02 00 00 00 08 79 FF 00 03 03 03 02 00 00 00 08 78 2E 00 0A 0A 0A 05 00 00 01 00 CD 21 00 01 01 01 02 00 00 00 08 79 CC 00 02 02 02 02 00 00 00 08 79 FF 00 03 03 03 02 00 00 00 08 78 2E 00 0B 0B 0B 05 00 00 01 00 CC F0 00 01 01 01 02 00 00 00 08 79 CC 00 02 02 02 02 00 00 00 08 79 FF 00 03 03 03 02 00 00 00 08 78 2E 00 0C 0C 0C 05 00 00 01 00 CD 47 00 01 01 01 02 00 00 00 08 79 CC 00 02 02 02 02 00 00 00 08 79 FF 00 03 03 03 02 00 00 00 08 78 2E 00 0D 0D 0D 05 00 00 00 00 CD 06 00 01 01 01 02 00 00 00 08 79 CC 00 02 02 02 02 00 00 00 08 79 FF 00 03 03 03 02 00 00 00 08 78 2E 00 0E 0E 0E 05 00 00 00 00 CD 35 00 01 01 01 02 00 00 00 08 79 CC 00 02 02 02 02 00 00 00 08 79 FF 00 03 03 03 02 00 00 00 08 78 2E 00 0F 0F 0F 05 00 00 00 00 CC E4 00 01 01 01 02 00 00 00 08 79 CC 00 02 02 02 02 00 00 00 08 79 FF 00 03 03 03 02 00 00 00 08 78 2E 00 10 10 10 05 00 00 00 00 CE 8B 00 01 01 01 02 00 00 00 08 79 CC 00 02 02 02 02 00 00 00 08 79 FF 00 03 03 03 02 00 00 00 08 78 2E 00 04 04 04 02 00 00 00 08 79 99 00 01 01 01 02 00 00 00 08 79 CC 00 02 02 02 02 00 00 00 08 79 FF 00 03 03 03 02 00 00 00 08 78 2E 00 05 05 05 05 00 00 01 00 CD DE 00 01 01 01 02 00 00 00 08 79 CC 00 02 02 02 02 00 00 00 08 79 FF 00 03 03 03 02 00 00 00 08 78 2E 00 06 06 06 05 00 00 01 00 CD ED 00 01 01 01 02 00 00 00 08 79 CC 00 02 02 02 02 00 00 00 08 79 FF 00 03 03 03 02 00 00 00 08 78 2E 00 07 07 07 05 00 00 01 00 CC 3C 00 01 01 01 02 00 00 00 08 79 CC 00 02 02 02 02 00 00 00 08 79 FF 00 03 03 03 02 00 00 00 08 78 2E 00 08 08 08 05 00 00 01 00 CC C3 00 01 01 01 02 00 00 00 08 79 CC 00 02 02 02 02 00 00 00 08 79 FF 00 03 03 03 02 00 00 00 08 78 2E 00 09 09 09 05 00 00 01 00 CD 12 00 01 01 01 02 00 00 00 08 79 CC 00 02 02 02 02 00 00 00 08 79 FF 00 03 03 03 02 00 00 00 08 78 2E 00 0A 0A 0A 05 00 00 01 00 CD 21 00 01 01 01 02 00 00 00 08 79 CC 00 02 02 02 02 00 00 00 08 79 FF 00 03 03 03 02 00 00 00 08 78 2E 00 0B 0B 0B 05 00 00 01 00 CC F0 00 01 01 01 02 00 00 00 08 79 CC 00 02 02 02 02 00 00 00 08 79 FF 00 03 03 03 02 00 00 00 08 78 2E 00 0C 0C 0C 05 00 00 01 00 CD 47 00 01 01 01 02 00 00 00 08 79 CC 00 02 02 02 02 00 00 00 08 79 FF 00 03 03 03 02 00 00 00 08 78 2E 00 0D 0D 0D 05 00 00 00 00 CD 06 00 01 01 01 02 00 00 00 08 79 CC 00 02 02 02 02 00 00 00 08 79 FF 00 03 03 03 02 00 00 00 08 78 2E 00 0E 0E 0E 05 00 00 00 00 CD 35 00 01 01 01 02 00 00 00 08 79 CC 00 02 02 02 02 00 00 00 08 79 FF 00 03 03 03 02 00 00 00 08 78 2E 00 0F 0F 0F 05 00 00 00 00 CC E4 00 01 01 01 02 00 00 00 08 79 CC 00 02 02 02 02 00 00 00 08 79 FF 00 03 03 03 02 00 00 00 08 78 2E 00 10 10 10 05 00 00 00 00 CE 8B 00 01 01 01 02 00 00 00 08 79 CC 00 02 02 02 02 00 00 00 08 79 FF 00 03 03 03 02 00 00 00 08 78 2E 00 04 04 04 02 00 00 00 08 79 99 00 01 01 01 02 00 00 00 08 79 CC 00 02 02 02 02 00 00 00 08 79 FF 00 03 03 03 02 00 00 00 08 78 2E 00 05 05 05 05 00 00 01 00 CD DE 00 01 01 01 02 00 00 00 08 79 CC 