/*读板卡类型*/
02 11 C0 DC 
/*写单个线圈*/
02 05 00 01 FF 00 DD C9 
02 05 00 01 00 00 9C 39 
/*读线圈*/
02 01 00 01 00 0A ED FE 
02 01 00 01 00 01 AC 39 
02 01 00 01 00 04 6C 3A 
/*写多个线圈*/
02 0F 00 01 00 0A 02 CD 01 65 49 
02 0F 00 01 00 0A 02 00 00 F0 19 
/*读输入寄存器*/
02 04 00 01 00 02 20 38  
/*写单个保持寄存器*/
02 06 00 01 AB CD 66 9C 
/*读保持寄存器*/
02 03 00 01 00 04 15 FA 
02 03 00 01 00 01 D5 F9 
/*写保持寄存器*/
02 10 00 01 00 04 08 BC DA EF 02 01 03 04 05 24 34 